  vcan0  128   [2]  13 5F
  vcan0  5E6   [4]  A7 52 1D 6B
  vcan0  6F0   [2]  EC E9
  vcan0  001   [5]  A7 CD 2B 4F 5A
  vcan0  0EB   [8]  4D BA 54 63 FA 66 D3 47
  vcan0  507   [8]  39 DD F2 3A 97 90 FF 00
  vcan0  19B   [6]  88 BC C4 40 F6 C1
  vcan0  079   [3]  63 CA E6
  vcan0  785   [6]  85 DD 3F 7F 6B CD
  vcan0  06A   [8]  04 9A DD 09 5A D7 C3 7F
  vcan0  0BE   [1]  2B
  vcan0  696   [2]  19 20
  vcan0  640   [6]  7B 56 8A 1D 47 83
  vcan0  4C6   [4]  DE 13 55 4E
  vcan0  1BA   [7]  57 60 4A 09 33 F2 35
  vcan0  10A   [8]  D5 6B F0 07 90 08 D3 5F
  vcan0  431   [8]  FB D5 8F 6C 9B FC B5 72
  vcan0  187   [0] 
  vcan0  3F1   [1]  05
  vcan0  1F3   [8]  08 3A 31 70 33 00 EE 43
  vcan0  585   [3]  7B 83 43
  vcan0  437   [8]  AC A0 14 5A F1 9D 2C 12
  vcan0  7C0   [3]  25 90 62
  vcan0  3BE   [8]  5B B9 0E 66 EF 7F 0D 4F
  vcan0  554   [6]  8A 7C C3 41 DB BE
  vcan0  756   [0] 
  vcan0  0A1   [6]  CE 3D F8 1F 95 7A
  vcan0  744   [6]  C8 7A B0 7B C9 A4
  vcan0  059   [3]  14 A7 EC
  vcan0  59D   [0] 
  vcan0  0C4   [7]  28 AE 7A 61 82 74 F0
  vcan0  6A1   [3]  71 F4 FD
  vcan0  6DA   [8]  D1 FA 93 4F 30 F6 33 63
  vcan0  7A0   [8]  34 70 A8 13 B1 8D 31 39
  vcan0  0EA   [8]  F1 FB 02 2A 3C C5 D3 26
  vcan0  117   [8]  6E 7E 09 1D 94 3F 1F 76
  vcan0  1EA   [8]  F3 17 69 6A 90 44 C7 7B
  vcan0  73E   [1]  EB
  vcan0  6F9   [4]  ED 08 90 54
  vcan0  0C0   [8]  AD 2A 47 75 5C C2 15 70
  vcan0  25A   [8]  2E B7 A7 7A FA B9 93 52
  vcan0  27A   [2]  AB 47
  vcan0  390   [8]  A0 68 6C 0D A7 3C 8B 01
  vcan0  2AA   [8]  3B 7C AA 77 94 2C C4 32
  vcan0  16D   [8]  24 71 8B 2E AB 78 25 51
  vcan0  310   [8]  79 24 6F 5A 0A 02 43 00
  vcan0  383   [7]  46 9B 07 14 43 F4 E2
  vcan0  4B0   [3]  9F B6 F8
  vcan0  0AF   [8]  04 A9 D4 57 29 D3 F6 21
  vcan0  530   [8]  8E 76 8F 08 C0 A0 97 71
  vcan0  44C   [8]  68 DD 22 73 F6 66 0F 11
  vcan0  63D   [3]  8B 93 D3
  vcan0  5D2   [8]  55 90 E2 38 E3 E0 7E 3B
  vcan0  0BF   [8]  ED E2 C1 3B 42 F4 25 77
  vcan0  236   [3]  86 E8 08
  vcan0  690   [3]  A4 C3 FC
  vcan0  656   [8]  74 6D 1F 34 8C 68 B3 48
  vcan0  386   [5]  5E D8 C3 5E 9F
  vcan0  660   [2]  78 03
  vcan0  010   [2]  4E EA
  vcan0  3A2   [8]  8D 01 09 50 AA F7 B6 5C
  vcan0  070   [8]  D5 D8 61 67 44 17 61 77
  vcan0  410   [8]  E5 81 74 09 A0 DA 57 4E
  vcan0  6EF   [8]  13 10 80 1E 45 4D 7A 10
  vcan0  2B3   [8]  D2 B5 2D 59 39 56 39 7A
  vcan0  23D   [0] 
  vcan0  223   [0] 
  vcan0  352   [2]  E3 BF
  vcan0  1BE   [0] 
  vcan0  75F   [4]  73 C9 9A 74
  vcan0  5FF   [8]  0F A6 57 0B EE 1C 65 7B
  vcan0  0E3   [2]  34 6A
  vcan0  3AA   [6]  CF 49 C4 19 E7 E5
  vcan0  636   [7]  85 56 BA 32 59 E8 AE
  vcan0  0F7   [8]  8D 82 89 7A 49 1C A0 46
  vcan0  23C   [0] 
  vcan0  3E0   [8]  29 16 C4 09 3F 6B 59 77
  vcan0  150   [8]  AE 36 59 34 50 F7 AC 0F
  vcan0  2F6   [8]  3E 14 12 0B D9 BB EE 44
  vcan0  2E0   [2]  6F AF
  vcan0  678   [8]  72 AC C1 11 AF 4C FD 18
  vcan0  0E5   [7]  08 35 AC 5C DC E1 D5
  vcan0  230   [5]  25 FE 75 0A 6C
  vcan0  205   [3]  67 60 83
  vcan0  340   [0] 
  vcan0  62D   [4]  E0 F3 DB 7D
  vcan0  491   [8]  FC 3C 03 5B 71 0F 73 79
  vcan0  691   [8]  FC D5 72 5F 0A 25 DE 1B
  vcan0  5A9   [8]  B9 71 DB 34 8E EE 9F 7F
  vcan0  565   [1]  6A
  vcan0  657   [0] 
  vcan0  7F3   [8]  42 56 15 37 33 B3 A5 1F
  vcan0  2F9   [8]  C4 AF D4 0D 27 29 2A 14
  vcan0  73C   [4]  4A AA 3E 2A
  vcan0  3C3   [7]  3F EB 8C 2C 55 32 7E
  vcan0  3B2   [8]  5F 57 5C 50 5C B9 79 02
  vcan0  3A9   [8]  EA A7 19 02 0E C9 E4 32
  vcan0  7D9   [5]  A3 C8 A4 7B 30
  vcan0  6E5   [5]  8D 26 0B 12 D8
  vcan0  10E   [8]  0C 8A 30 55 08 F4 1D 23
  vcan0  437   [0] 
  vcan0  574   [8]  41 77 5F 72 38 89 54 03
  vcan0  6C0   [0] 
  vcan0  3BB   [8]  CF 3B 01 2E 64 67 20 28
  vcan0  404   [8]  72 30 05 5B DD 4B 26 24
  vcan0  40E   [5]  0E 1A A3 23 F3
  vcan0  5BB   [8]  CC 79 B0 3E C9 DE A1 48
  vcan0  56A   [8]  D1 D2 BF 6B A2 F9 E4 1A
  vcan0  5A8   [0] 
  vcan0  77A   [6]  54 A4 F0 68 3A 66
  vcan0  6D6   [1]  AD
  vcan0  2CD   [8]  F5 F9 82 3E D1 4E 59 36
  vcan0  036   [7]  AF 9A 7F 5A 44 64 A5
  vcan0  37D   [8]  38 07 CB 73 38 E1 39 10
  vcan0  558   [4]  01 C0 DB 58
  vcan0  4DC   [3]  64 AC 84
  vcan0  2D3   [8]  A0 DD DE 22 4D 3A 32 6C
  vcan0  5D0   [5]  88 A0 89 57 A7
  vcan0  1D6   [5]  38 4F 12 76 A4
  vcan0  5B2   [8]  75 A3 DE 0B E8 B5 43 28
  vcan0  395   [4]  2C 1A E9 12
  vcan0  2E1   [4]  4A 78 89 4E
  vcan0  268   [8]  FC 9A F1 4A 44 27 8C 7F
  vcan0  31F   [0] 
  vcan0  0DA   [8]  40 88 D6 3F AB D6 5E 34
  vcan0  15E   [8]  52 93 0E 14 34 2B 10 18
  vcan0  1FD   [8]  D8 7F 95 6D AF 5F 11 39
  vcan0  3B8   [8]  97 15 55 61 4E 9F D3 0C
  vcan0  172   [4]  60 36 23 4B
  vcan0  128   [8]  8D 3C A5 5C 91 F3 21 34
  vcan0  6F7   [8]  D5 1A AE 33 16 B2 12 2D
  vcan0  6EA   [8]  08 00 B7 00 C4 A7 32 00
  vcan0  407   [8]  6F 7E 91 34 65 15 A8 3B
  vcan0  110   [1]  99
  vcan0  44C   [2]  BD C2
  vcan0  3C0   [5]  52 BF 4A 1E 32
  vcan0  019   [3]  86 99 E7
  vcan0  45E   [4]  D2 4C 6F 1B
  vcan0  59D   [8]  6B 3D 3F 71 87 CC 30 23
  vcan0  446   [3]  4C 74 63
  vcan0  5BC   [8]  B2 4D 6D 4B CC 76 71 0A
  vcan0  47D   [8]  DA D9 27 68 C9 F8 55 73
  vcan0  6BD   [8]  CD 18 CD 04 7D 32 35 1B
  vcan0  4ED   [0] 
  vcan0  5D3   [6]  47 D6 B4 4A 31 72
  vcan0  74A   [8]  86 FD CC 53 E8 94 61 33
  vcan0  2C2   [1]  6F
  vcan0  064   [8]  55 2F A1 04 20 3E 86 69
  vcan0  077   [7]  ED B4 F7 73 F4 CC 7F
  vcan0  352   [7]  BD C5 D5 65 10 5A A7
  vcan0  35F   [8]  8D 8C DC 6A 4C A0 1B 52
  vcan0  6AA   [8]  52 1D 83 35 7D 84 40 1A
  vcan0  574   [8]  AE F6 E0 29 BE FC 94 05
  vcan0  6B4   [4]  A6 91 F6 38
  vcan0  725   [6]  7E 98 79 10 8A A7
  vcan0  0D1   [3]  AA E5 42
  vcan0  4DA   [7]  3C 5E E9 4D 2C 50 5D
  vcan0  15F   [8]  3C AA 04 24 BE 54 69 0E
  vcan0  284   [8]  0B F5 84 60 2E B9 1C 2C
  vcan0  307   [8]  AC 3D 5D 46 7B 50 DE 64
  vcan0  5F7   [8]  3A 4D 73 6A AB 1C 9C 7C
  vcan0  08F   [0] 
  vcan0  1F6   [8]  3E FF 62 2A C8 9A 71 3C
  vcan0  672   [8]  10 2C DB 17 4C 63 F7 22
  vcan0  780   [8]  79 B3 54 77 DF A8 3A 18
  vcan0  646   [5]  9E FD A3 26 CA
  vcan0  47F   [8]  F9 69 02 64 87 CF C1 59
  vcan0  506   [5]  02 20 A0 3E FE
  vcan0  3FF   [8]  A9 27 0D 30 8E 04 8A 08
  vcan0  41D   [8]  43 5C 30 39 13 1E 70 7F
  vcan0  46A   [1]  DB
  vcan0  06A   [8]  29 BE BF 51 EB BF 19 56
  vcan0  739   [2]  CA 68
  vcan0  758   [8]  4A CE EA 0A D7 63 A8 0E
  vcan0  111   [3]  5E 33 6A
  vcan0  7E8   [1]  16
  vcan0  09D   [8]  76 C0 74 3C BA 0C 9B 1C
  vcan0  68A   [8]  CE 2A 0B 1C F5 B2 11 56
  vcan0  03A   [8]  D2 0D DA 04 A5 B8 71 4A
  vcan0  095   [8]  90 78 8B 20 CE 37 2B 65
  vcan0  59E   [8]  4E 55 30 38 F6 0C 1C 04
  vcan0  7C3   [8]  CD 70 C4 12 D4 A0 F9 3F
  vcan0  3DB   [8]  EC FE 4B 79 C3 3B 55 4B
  vcan0  78D   [2]  AA F7
  vcan0  0C2   [0] 
  vcan0  4D9   [3]  41 22 09
  vcan0  35C   [3]  B9 05 04
  vcan0  40F   [8]  C0 D3 BE 13 AD 39 2B 39
  vcan0  7A3   [8]  A3 46 47 3D 66 A7 47 28
  vcan0  4A6   [0] 
  vcan0  39C   [7]  44 E4 67 0C 29 53 73
  vcan0  72A   [8]  54 0B CA 5F EC A7 7C 4A
  vcan0  40F   [8]  38 17 74 32 E9 68 B6 78
  vcan0  7EC   [8]  FD B5 48 03 48 93 A2 1C
  vcan0  18D   [6]  3A 2F 36 4B 9C 65
  vcan0  1FF   [8]  49 9F 08 06 A2 99 4B 52
  vcan0  409   [8]  09 41 93 7A B0 78 EE 39
